Index,Frequency (Hz),Z' (Ω),-Z'' (Ω),Z (Ω),-Phase (°),Time (s)
1,5000,0.227170118772829,-0.0772546989029067,0.239946976154817,-18.7818445172943,377.813066046114
2,3971.6,0.226025644045214,-0.0612493296627196,0.234177437320904,-15.1621095581762,379.193089042629
3,3154.8,0.225362692422953,-0.048439685300182,0.230509753043344,-12.1306497250347,380.383113039625
4,2505.9,0.224967860790046,-0.0381703830181754,0.228183076778721,-9.62968909830531,381.59313603657
5,1990.5,0.224675924727147,-0.0299166506050472,0.226658944529933,-7.58458578342952,382.79315703354
6,1581.1,0.224576122682501,-0.0233094897814744,0.225782566184766,-5.92569774617184,383.953177030611
7,1255.9,0.224481334333839,-0.0179977839260627,0.225201664493294,-4.58388233045743,385.128200027645
8,997.63,0.224696935751596,-0.0137743137698001,0.225118734573526,-3.50794136706994,386.333223024602
9,792.45,0.224875492885289,-0.010407892870811,0.225116217839613,-2.64992451600492,387.493243021674
10,629.46,0.225049732269308,-0.00770572785835474,0.225181616115335,-1.96104773345678,388.678264018682
11,500,0.225427917653976,-0.00556892215659854,0.225496693882181,-1.415134624444,389.883287015639
12,397.16,0.225789955035494,-0.00385417953828293,0.225822847592629,-0.977930026541059,391.06330901266
13,315.48,0.226088658430791,-0.00248371709740404,0.226102300566922,-0.62940257119135,392.273333009605
14,250.59,0.226417664014453,-0.00134523241776234,0.226421660244818,-0.340411749360667,393.498356006512
15,199.05,0.226756047386955,-0.000481719241146714,0.226756559067168,-0.121718640915339,394.70337800347
16,158.11,0.227239437148547,0.000266842516777436,0.227239593822285,0.0672812042239681,395.933401000364
17,125.59,0.22749158271055,0.000871461446484394,0.22749325187619,0.219484246669772,397.19842299717
18,99.763,0.227874114815416,0.00137520157642692,0.227878264391945,0.345771128228257,398.453446994002
19,79.245,0.228206372566321,0.00178540000658266,0.228213356605309,0.448251277569461,399.73346999077
20,62.946,0.228727966288619,0.00212912347001024,0.228737875589676,0.533324663479181,401.073493987387
21,50,0.22905547062383,0.0024960293803201,0.229069069901136,0.624330378838308,402.418520983991
22,39.716,0.229530002914862,0.00275423409736655,0.229546526969065,0.687484922344047,403.833544980418
23,31.548,0.229959841146109,0.00300181718675065,0.229979432659458,0.747877050238104,405.328575976644
24,25.059,0.230484129491858,0.00325597416925637,0.230507126387473,0.809344965631274,406.813600972894
25,19.905,0.230916861371255,0.00341691384789927,0.23094214029881,0.847752972549341,409.428649966292
26,15.811,0.231427243725437,0.00364472046505489,0.231455942083199,0.902269907464367,411.153679961937
27,12.559,0.232215830090581,0.00378900452719578,0.232246740127746,0.93479718797746,412.993716957291
28,9.9763,0.232834906373801,0.00387066818018988,0.232867077317207,0.952402402682088,415.163755951812
29,7.9245,0.233523935670011,0.00392185731292875,0.233556865657156,0.962148693559907,417.353797946283
30,6.2946,0.234295828738715,0.0039234983932161,0.234328677724266,0.959380670061548,419.648839940489
31,5,0.234847179341063,0.00372239739295072,0.234876678039358,0.908079044678596,421.903879934795
32,3.9716,0.235540921476538,0.0035815187172933,0.235568149303633,0.871144141810335,424.188923929026
33,3.1548,0.236150777488879,0.00337822861000487,0.236174939689086,0.81958247922261,426.613968922903
34,2.5059,0.236471447413411,0.00305304384429642,0.236491155264861,0.739695258563698,429.104013916617
35,1.9905,0.236988837444627,0.00280706537046919,0.237005461307012,0.678620476114627,431.599059910317
36,1.5811,0.237350538014713,0.00256212561900926,0.237364366288542,0.618466190318856,434.179106903803
37,1.2559,0.237609497662916,0.00238146918014155,0.237621431640917,0.574234472153828,436.974158896746
38,0.99763,0.237847424300777,0.00212638047826706,0.237856929141138,0.512216525847679,440.184219888642
39,0.79245,0.238023128880944,0.00205905581701093,0.238032034804419,0.495633621565109,443.284277880815
40,0.62946,0.238105038825738,0.00198969040290086,0.238113351961005,0.478772770989326,446.709339872167
41,0.5,0.238412336457549,0.00199180330518108,0.238420656520265,0.47866343537117,450.4194098628
42,0.39716,0.238698845153856,0.00208397091032229,0.238707942080987,0.500210648819219,454.509484852474
43,0.31548,0.238890175410945,0.00206717521849173,0.238899119130348,0.495782043959052,459.119570840835
44,0.25059,0.238972492815008,0.00216738492444325,0.238982321270067,0.519635555050577,464.384666827541
45,0.19905,0.239115563916424,0.00243659373435557,0.239127978070521,0.583825257087593,470.444781812241
46,0.15811,0.239350031983437,0.00247995907663187,0.239362879343256,0.593633110786379,477.559911794277
47,0.12559,0.23951542741392,0.00269896178519876,0.23953063345633,0.645605906483319,485.980066773018
48,0.099763,0.239651497111431,0.00307278034958208,0.239671195696994,0.734598784118413,496.115253747429
49,0.079245,0.240019916696536,0.00349606446506047,0.240045376705647,0.834495642622724,508.300480716665
50,0.062946,0.240238107682219,0.00383841054440662,0.240268769877071,0.915366904090756,523.010753679525
51,0.05,0.240672674311998,0.00447515403235741,0.240714277025901,1.06525551608424,540.981084634154
Index,Frequency (Hz),Z' (Ω),-Z'' (Ω),Z (Ω),-Phase (°),Time (s)
1,5000,0.227569645591731,-0.0772695774059461,0.240330046367988,-18.7545358234148,1806.5498134389
2,3971.6,0.226318492061296,-0.061282399206135,0.234468744828301,-15.1511922691497,1807.79983843574
3,3154.8,0.225530085339422,-0.0484444218354105,0.230674405602733,-12.1230627333008,1808.98985943274
4,2505.9,0.224977215531499,-0.0381422353439595,0.228187593057424,-9.62232814456739,1810.1948804297
5,1990.5,0.224792722181631,-0.0299065262530234,0.226773385251336,-7.57815520996019,1811.39490242667
6,1581.1,0.22464833221625,-0.0233037525917226,0.225853797958766,-5.92235890584844,1812.55492342374
7,1255.9,0.224579929083971,-0.0180026098963694,0.225300329583519,-4.58310185458349,1813.72494742078
8,997.63,0.224689069474197,-0.0137826696118118,0.225111394475733,-3.51018663171807,1814.91497041778
9,792.45,0.224818672349821,-0.0103938932065291,0.225058811098621,-2.64703306073997,1816.00499041503
10,629.46,0.225058172904553,-0.00770744355609611,0.225190110522879,-1.96141051763442,1817.18501041205
11,500,0.225338323840936,-0.00554351488674044,0.225406501123508,-1.40924077970092,1818.39503340899
12,397.16,0.225727389952027,-0.00383622802193805,0.22575998586993,-0.973645764198782,1819.580055406
13,315.48,0.226069324746864,-0.0024522604421032,0.226082624659169,-0.62148486224191,1820.78007940297
14,250.59,0.226327607968738,-0.00132277756400416,0.226331473439587,-0.334862853885362,1822.01510139985
15,199.05,0.226863600743174,-0.000440406198595482,0.226864028219059,-0.111227119160242,1823.21512139682
16,158.11,0.227171142019811,0.000308926650318613,0.227171352072088,0.0779156286053429,1824.45514639369
17,125.59,0.227522150904569,0.00089814032653138,0.227523923595493,0.226173067660741,1825.72517039049
18,99.763,0.227953264684313,0.00141343608159699,0.227957646684189,0.355260910012951,1826.97019138734
19,79.245,0.228410471989981,0.00183221950888454,0.228417820546065,0.459594485830167,1828.26521538407
20,62.946,0.228854905112192,0.00220601230153938,0.228865537126465,0.552276910264403,1829.62524138064
21,50,0.229286621069248,0.00251886213876342,0.229300456318401,0.629405953734526,1830.97526537723
22,39.716,0.229686646971118,0.0027931957739177,0.229703630227008,0.696733757885202,1832.39529337365
23,31.548,0.230240398397438,0.00305121475098167,0.230260615315923,0.759256393098734,1833.90532136983
24,25.059,0.230788896995932,0.00330403335128081,0.230812546480873,0.8202051194312,1835.35534836617
25,19.905,0.231396678296949,0.00343678737512855,0.231422199095773,0.85091512905543,1837.97539735956
26,15.811,0.231902715421382,0.00360974784061513,0.231930807999462,0.891781773372643,1839.70543035519
27,12.559,0.232607178173387,0.00372401932076471,0.232636986865131,0.917221747861331,1841.55046135053
28,9.9763,0.233259490181723,0.00391033952333801,0.233292264155983,0.960410942988244,1843.73050334503
29,7.9245,0.233953579929869,0.00383467119973477,0.233985004359706,0.939035868887231,1845.9205433395
30,6.2946,0.234749548716032,0.00385147160941273,0.234781141610519,0.939951843272428,1848.22058433369
31,5,0.235179782057562,0.00370592267197474,0.235208978892161,0.902782349159551,1850.45562632805
32,3.9716,0.235903381112099,0.00343455595161169,0.23592838191855,0.83411970276507,1852.75066732225
33,3.1548,0.236414804120111,0.00321445146469745,0.236436656010377,0.778983172933329,1855.16071231617
34,2.5059,0.236739395523048,0.00297177040374452,0.236758046984576,0.719191492465627,1857.58076031006
35,1.9905,0.23714879749377,0.00273845678287671,0.237164608022135,0.661589029039967,1860.07580630376
36,1.5811,0.237523355123206,0.00249175741642038,0.237536424752093,0.601043827965233,1862.68585529717
37,1.2559,0.237812758951629,0.00238429715881452,0.23782471106495,0.574424971365772,1865.49090529009
38,0.99763,0.237955637575622,0.00222799601091615,0.237966067791703,0.536448891559143,1868.69096528201
39,0.79245,0.238314019751886,0.00208001075772128,0.238323096772123,0.500066306684332,1871.78102327421
40,0.62946,0.238394162481717,0.00205825706663062,0.23840304764728,0.494670304403503,1875.22108426552
41,0.5,0.238482827650115,0.00201074477231794,0.238491304198987,0.483072347022375,1878.90115525623
42,0.39716,0.238786173807903,0.00203793627070474,0.23879487009997,0.488982718213674,1882.9912312459
43,0.31548,0.238964448400985,0.00216126783171877,0.238974221786006,0.518186490489879,1887.67131423409
44,0.25059,0.23918128038813,0.00221840383781104,0.239191568002914,0.531402509364283,1892.93641222079
45,0.19905,0.239321730731616,0.00241310905233098,0.239333896253069,0.577700480591277,1899.00152420548
46,0.15811,0.239586859023213,0.00251886120468416,0.239600099495758,0.60234855904074,1906.10165818756
47,0.12559,0.239824135982818,0.00287755530089949,0.23984139868758,0.687436491987174,1914.50681416634
48,0.099763,0.239884441329972,0.00318049131520526,0.239905524565816,0.759607632334912,1924.64700014073
49,0.079245,0.240146453485733,0.00350291635959641,0.240171999918387,0.835690421089438,1936.76722611013
50,0.062946,0.240489491692884,0.0038699430218608,0.240520627127268,0.921920805606786,1951.47749607299
51,0.05,0.240763530103131,0.00439822256941508,0.240803699700589,1.04655204320904,1969.54283302738
Index,Frequency (Hz),Z' (Ω),-Z'' (Ω),Z (Ω),-Phase (°),Time (s)
1,5000,0.227119272662325,-0.0772734057090418,0.239904862903064,-18.7899840782557,3240.24065481918
2,3971.6,0.225964398947147,-0.0612971951653997,0.234130851719056,-15.1773353558116,3241.49067681602
3,3154.8,0.225226730930661,-0.0484807613265894,0.230385469473485,-12.1477425525997,3242.68069981302
4,2505.9,0.224627680079045,-0.0381621040828213,0.22784630970398,-9.6419463505685,3243.89072280996
5,1990.5,0.224510499403781,-0.0299281047618021,0.226496480761111,-7.59298129813209,3245.09074580693
6,1581.1,0.22438044369648,-0.0233309130856035,0.225590148319552,-5.93624064722953,3246.26076580398
7,1255.9,0.224282668154757,-0.0180389868296973,0.225006933849734,-4.59838362865843,3247.43078880103
8,997.63,0.22436850147751,-0.0138074516911133,0.224792949572414,-3.52149390112575,3248.63581179798
9,792.45,0.224620971895307,-0.0104072296288861,0.224861938628441,-2.65275407738915,3249.72083179524
10,629.46,0.224880199359017,-0.00773096165388493,0.225013048136869,-1.96894656625837,3250.89585179228
11,500,0.225106280374374,-0.00556663590352459,0.225175098310779,-1.41657422002336,3252.11087578921
12,397.16,0.225474915804243,-0.00385349205568092,0.225507842564186,-0.979121502846915,3253.29589778622
13,315.48,0.225793348918493,-0.00245117827648774,0.225806653335927,-0.621969841580643,3254.50091978318
14,250.59,0.226239465096158,-0.00132296744577304,0.22624333318323,-0.335041399893405,3255.72594178008
15,199.05,0.226542605147128,-0.000431923750473132,0.226543016897396,-0.109239398793297,3256.93096477704
16,158.11,0.226901354690769,0.000284084761065984,0.22690153253043,0.0717353554381322,3258.15598777395
17,125.59,0.22734069048559,0.000909065683374624,0.227342508015728,0.229107025409375,3259.43600977071
18,99.763,0.227791679176076,0.00145200594444211,0.22779630686892,0.365213891983685,3260.69103576755
19,79.245,0.228234880194628,0.00186062969290094,0.228242464235537,0.467079646126948,3261.98605676428
20,62.946,0.228655394250386,0.00224257430706491,0.228666391188828,0.561919494053768,3263.35108176083
21,50,0.229015961628387,0.00257843216413343,0.22903047612272,0.645051279394071,3264.70110675742
22,39.716,0.229538669144087,0.00280082167303854,0.229555756265189,0.699086119443576,3266.12613375382
23,31.548,0.229969049555734,0.00308344463660274,0.22998972017113,0.768180668519562,3267.63116275002
24,25.059,0.230634819751169,0.00332719653522049,0.230658817994107,0.826506145949766,3269.08618874635
25,19.905,0.231322792611803,0.00346717432586492,0.231348774968724,0.858711669895024,3271.71123773972
26,15.811,0.231862366591059,0.00366091138712523,0.231891266142973,0.904576913011245,3273.43626773537
27,12.559,0.232556243896809,0.00373402704973571,0.232586219569002,0.919887611697236,3275.2863047307
28,9.9763,0.233126474636465,0.00379733263975954,0.233157399435667,0.933192572377399,3277.45634572522
29,7.9245,0.233859700942729,0.00380904584842872,0.233890719258584,0.933136209801327,3279.65138471968
30,6.2946,0.234533115534451,0.00376820896843982,0.234563385209896,0.920483636787383,3281.95142571387
31,5,0.235209146067008,0.0036072738033224,0.23523680583162,0.878645094886907,3284.20646870818
32,3.9716,0.235772365185596,0.00342717735213587,0.235797272524118,0.832790430799143,3286.48651370242
33,3.1548,0.236230354586638,0.00315563831507749,0.236251430643932,0.765329265396141,3288.90655769631
34,2.5059,0.23668489668303,0.002894348674803,0.236702593082771,0.700617995652777,3291.39660069002
35,1.9905,0.237153753520071,0.00265280451958522,0.237168590206371,0.640884495963381,3293.88664968374
36,1.5811,0.237380990473669,0.00249276875528605,0.237394078557843,0.601648342137839,3296.56169767698
37,1.2559,0.237775188740148,0.00234304094399416,0.237786732643515,0.564575358345585,3299.29674967008
38,0.99763,0.237884549118523,0.00224215983032784,0.237895115523685,0.540020323741822,3302.50680666197
39,0.79245,0.238100416867073,0.00207512659731512,0.238109459414507,0.499339679232325,3305.68686865394
40,0.62946,0.238298837828041,0.00213478499549171,0.23830839980406,0.513266869581494,3309.12193064527
41,0.5,0.238360758220942,0.00214080406454847,0.238370371694355,0.514580254934782,3312.88200163578
42,0.39716,0.238552223579844,0.0022234876221462,0.238562585650168,0.534024649088825,3316.97207762545
43,0.31548,0.238919446144924,0.0022350611193693,0.238929900272872,0.535979116403015,3321.6671626136
44,0.25059,0.23913152645635,0.00225210496554021,0.239142131215141,0.539587132944767,3327.0122626001
45,0.19905,0.239396196251899,0.00267899363895438,0.239411185592477,0.641148958661585,3333.15737558459
46,0.15811,0.239624671924196,0.00266390789873804,0.239639478801118,0.636931043411533,3340.34751056643
47,0.12559,0.240018024526713,0.00294849843039197,0.240036134239617,0.703813886777595,3348.76766354517
48,0.099763,0.240130812585062,0.00331140092066817,0.240153643588474,0.790058009692177,3358.91785351955
49,0.079245,0.24030618713179,0.00369955220019954,0.240334663043642,0.882008015554456,3371.03807648895
50,0.062946,0.240706147956488,0.00410059374930818,0.240741073631293,0.975978357715048,3385.75334845179
51,0.05,0.240953830054449,0.00457982848343756,0.240997350705036,1.0888942923228,3403.81868540618
Index,Frequency (Hz),Z' (Ω),-Z'' (Ω),Z (Ω),-Phase (°),Time (s)
1,5000,0.227366802608483,-0.077333980100003,0.240158712951482,-18.7846439826363,4673.86549619962
2,3971.6,0.226081713957906,-0.0613101374617308,0.234247463896027,-15.1728780823616,4675.10551619649
3,3154.8,0.225181256117251,-0.0484639398943223,0.230337473235736,-12.1460323271583,4676.29553819349
4,2505.9,0.224845860311682,-0.0382108195807857,0.22806956752784,-9.64483141843259,4677.51556319041
5,1990.5,0.224507264443976,-0.0299463966244752,0.226495691921299,-7.59767608118868,4678.7055831874
6,1581.1,0.224389935108008,-0.0233409551122514,0.225600627577426,-5.93852804267686,4679.77060318471
7,1255.9,0.22428111431183,-0.0180517974997176,0.225006412419573,-4.60166696703503,4680.95062518174
8,997.63,0.224487840282033,-0.0138196660556229,0.224912813339704,-3.52273226452334,4682.15565017869
9,792.45,0.224594288135401,-0.0104331102255531,0.224836482920424,-2.65965696102313,4683.32566917574
10,629.46,0.224849710673985,-0.00773676002062,0.224982776775894,-1.97068911997456,4684.51569417273
11,500,0.225104171461985,-0.00557149975811147,0.225173110337672,-1.41782472589678,4685.7157131697
12,397.16,0.2254279024632,-0.00385670052731173,0.225460890949884,-0.980140901702805,4686.90073816671
13,315.48,0.225839822927301,-0.00247568361816086,0.2258533918922,-0.628058149815346,4688.10575816367
14,250.59,0.226207408185094,-0.00131360727430435,0.226211222272214,-0.332718133986052,4689.33078316058
15,199.05,0.226627338856256,-0.000433167351497073,0.226627752826133,-0.109512960640675,4690.52580415756
16,158.11,0.22696365804261,0.000296920566014787,0.226963852262657,0.0749559895390184,4691.77082715442
17,125.59,0.227327647645821,0.000903631096057304,0.227329443612877,0.227750455735987,4693.04085115121
18,99.763,0.227785010357925,0.00144406957322871,0.227789587735464,0.363228393816034,4694.29587414804
19,79.245,0.228183820379094,0.0018568771597437,0.228191375550403,0.466241978921706,4695.59089614477
20,62.946,0.22869646015537,0.00222022978150149,0.228707237113038,0.55622111379226,4696.93092114139
21,50,0.228986264487498,0.00253070537610097,0.229000248457593,0.633194460505811,4698.28594813797
22,39.716,0.229455537790754,0.00283229036660143,0.229473017349676,0.707196021338607,4699.7009721344
23,31.548,0.2299804050617,0.00309698108906342,0.230001256527459,0.771514515831461,4701.2060001306
24,25.059,0.230579894262921,0.0033293971445094,0.23060392998309,0.827249703033241,4702.75603212668
25,19.905,0.231223800993903,0.00350087654494768,0.231250302232562,0.867428545551878,4705.37108212008
26,15.811,0.231879994800403,0.00366906517272218,0.231909021014442,0.906522390892673,4707.12111211566
27,12.559,0.232586667766751,0.00374245741215414,0.232616774997683,0.92184351791084,4709.06614711075
28,9.9763,0.23305077210575,0.00378564638396357,0.233081516851145,0.930623332143525,4711.23118810528
29,7.9245,0.233748919025552,0.00376146952969688,0.233779181704951,0.921919681842684,4713.42622609974
30,6.2946,0.234521122518505,0.00373185293283565,0.234550812477067,0.911650839853448,4715.72127109395
31,5,0.235147804672064,0.00356964352147654,0.235174897463487,0.86970745892,4718.00131308819
32,3.9716,0.235728509626347,0.00330191912787039,0.23575163397225,0.802506489502264,4720.2963530824
33,3.1548,0.236270352762613,0.00312391565589847,0.236291003729712,0.757508302344406,4722.72140007627
34,2.5059,0.236553494799295,0.00293982341954585,0.23657176176268,0.712019932986218,4725.21644406998
35,1.9905,0.236909386231199,0.00267773220949781,0.236924518643025,0.647573419637359,4727.71149106368
36,1.5811,0.237280791179082,0.00253415743855426,0.237294323186406,0.611895320414359,4730.38154005693
37,1.2559,0.237469441780137,0.0023430671615389,0.237481000804471,0.565308539051782,4733.11159305004
38,0.99763,0.237856093894207,0.00220320678497504,0.237866297576489,0.53070256906975,4736.23165104216
39,0.79245,0.238048410673276,0.00212198471972974,0.238057868265729,0.510726150753581,4739.40170903416
40,0.62946,0.23824862605126,0.00216771249245589,0.238258487346753,0.521293037427183,4742.73676902574
41,0.5,0.238306337980463,0.00218664068129999,0.238316369809394,0.525717307728115,4746.42183701644
42,0.39716,0.238601438341759,0.00225663720755156,0.238612109479471,0.541874071871908,4750.51191300611
43,0.31548,0.238792796071948,0.00227822901627372,0.238803663672293,0.546620121086319,4755.19700199428
